<Qucs Dataset 24.1.0>
<indep frequency 307>
1.000000000000e+03
1.046183444392e+03
1.094499799320e+03
1.145047569938e+03
1.197929810711e+03
1.253254335509e+03
1.311133937422e+03
1.371686618711e+03
1.435035831389e+03
1.501310728908e+03
1.570646429472e+03
1.643184291506e+03
1.719072201859e+03
1.798464877299e+03
1.881524179950e+03
1.968419447287e+03
2.059327837370e+03
2.154434690032e+03
2.253933904735e+03
2.358028335887e+03
2.466930206412e+03
2.580861540418e+03
2.700054615853e+03
2.824752438059e+03
2.955209235203e+03
3.091690976583e+03
3.234475914877e+03
3.383855153428e+03
3.540133239737e+03
3.703628786354e+03
3.874675120456e+03
4.053620963418e+03
4.240831141768e+03
4.436687330979e+03
4.641588833613e+03
4.855953393400e+03
5.080218046913e+03
5.314840014581e+03
5.560297632846e+03
5.817091329374e+03
6.085744643307e+03
6.366805292624e+03
6.660846290809e+03
6.968467115083e+03
7.290294928589e+03
7.626985859023e+03
7.979226336321e+03
8.347734492114e+03
8.733261623828e+03
9.136593726392e+03
9.558553094685e+03
1.000000000000e+04
1.046183444392e+04
1.094499799320e+04
1.145047569938e+04
1.197929810711e+04
1.253254335509e+04
1.311133937422e+04
1.371686618711e+04
1.435035831389e+04
1.501310728908e+04
1.570646429472e+04
1.643184291506e+04
1.719072201859e+04
1.798464877299e+04
1.881524179950e+04
1.968419447287e+04
2.059327837370e+04
2.154434690032e+04
2.253933904735e+04
2.358028335887e+04
2.466930206412e+04
2.580861540418e+04
2.700054615853e+04
2.824752438059e+04
2.955209235203e+04
3.091690976583e+04
3.234475914877e+04
3.383855153428e+04
3.540133239737e+04
3.703628786354e+04
3.874675120456e+04
4.053620963418e+04
4.240831141768e+04
4.436687330979e+04
4.641588833613e+04
4.855953393400e+04
5.080218046913e+04
5.314840014581e+04
5.560297632846e+04
5.817091329374e+04
6.085744643307e+04
6.366805292624e+04
6.660846290809e+04
6.968467115083e+04
7.290294928589e+04
7.626985859023e+04
7.979226336321e+04
8.347734492114e+04
8.733261623828e+04
9.136593726392e+04
9.558553094685e+04
1.000000000000e+05
1.046183444392e+05
1.094499799320e+05
1.145047569938e+05
1.197929810711e+05
1.253254335509e+05
1.311133937422e+05
1.371686618711e+05
1.435035831389e+05
1.501310728908e+05
1.570646429472e+05
1.643184291506e+05
1.719072201859e+05
1.798464877299e+05
1.881524179950e+05
1.968419447287e+05
2.059327837370e+05
2.154434690032e+05
2.253933904735e+05
2.358028335887e+05
2.466930206412e+05
2.580861540418e+05
2.700054615853e+05
2.824752438059e+05
2.955209235203e+05
3.091690976583e+05
3.234475914877e+05
3.383855153428e+05
3.540133239737e+05
3.703628786354e+05
3.874675120456e+05
4.053620963418e+05
4.240831141768e+05
4.436687330979e+05
4.641588833613e+05
4.855953393400e+05
5.080218046913e+05
5.314840014581e+05
5.560297632846e+05
5.817091329374e+05
6.085744643307e+05
6.366805292624e+05
6.660846290809e+05
6.968467115083e+05
7.290294928589e+05
7.626985859023e+05
7.979226336321e+05
8.347734492114e+05
8.733261623828e+05
9.136593726392e+05
9.558553094685e+05
1.000000000000e+06
1.046183444392e+06
1.094499799320e+06
1.145047569938e+06
1.197929810711e+06
1.253254335509e+06
1.311133937422e+06
1.371686618711e+06
1.435035831389e+06
1.501310728908e+06
1.570646429472e+06
1.643184291506e+06
1.719072201859e+06
1.798464877299e+06
1.881524179950e+06
1.968419447287e+06
2.059327837370e+06
2.154434690032e+06
2.253933904735e+06
2.358028335887e+06
2.466930206412e+06
2.580861540418e+06
2.700054615853e+06
2.824752438059e+06
2.955209235203e+06
3.091690976583e+06
3.234475914877e+06
3.383855153428e+06
3.540133239737e+06
3.703628786354e+06
3.874675120456e+06
4.053620963418e+06
4.240831141768e+06
4.436687330979e+06
4.641588833613e+06
4.855953393400e+06
5.080218046913e+06
5.314840014581e+06
5.560297632846e+06
5.817091329374e+06
6.085744643307e+06
6.366805292624e+06
6.660846290809e+06
6.968467115083e+06
7.290294928589e+06
7.626985859024e+06
7.979226336321e+06
8.347734492114e+06
8.733261623829e+06
9.136593726392e+06
9.558553094685e+06
1.000000000000e+07
1.046183444392e+07
1.094499799320e+07
1.145047569938e+07
1.197929810711e+07
1.253254335509e+07
1.311133937422e+07
1.371686618711e+07
1.435035831389e+07
1.501310728908e+07
1.570646429472e+07
1.643184291506e+07
1.719072201859e+07
1.798464877299e+07
1.881524179950e+07
1.968419447287e+07
2.059327837370e+07
2.154434690032e+07
2.253933904735e+07
2.358028335887e+07
2.466930206412e+07
2.580861540418e+07
2.700054615853e+07
2.824752438059e+07
2.955209235203e+07
3.091690976583e+07
3.234475914877e+07
3.383855153428e+07
3.540133239737e+07
3.703628786354e+07
3.874675120456e+07
4.053620963418e+07
4.240831141768e+07
4.436687330979e+07
4.641588833613e+07
4.855953393400e+07
5.080218046913e+07
5.314840014581e+07
5.560297632846e+07
5.817091329374e+07
6.085744643307e+07
6.366805292624e+07
6.660846290809e+07
6.968467115083e+07
7.290294928589e+07
7.626985859024e+07
7.979226336321e+07
8.347734492114e+07
8.733261623829e+07
9.136593726392e+07
9.558553094685e+07
1.000000000000e+08
1.046183444392e+08
1.094499799320e+08
1.145047569938e+08
1.197929810711e+08
1.253254335509e+08
1.311133937422e+08
1.371686618711e+08
1.435035831389e+08
1.501310728908e+08
1.570646429472e+08
1.643184291506e+08
1.719072201859e+08
1.798464877299e+08
1.881524179950e+08
1.968419447287e+08
2.059327837370e+08
2.154434690032e+08
2.253933904735e+08
2.358028335887e+08
2.466930206412e+08
2.580861540418e+08
2.700054615853e+08
2.824752438059e+08
2.955209235203e+08
3.091690976583e+08
3.234475914877e+08
3.383855153428e+08
3.540133239737e+08
3.703628786354e+08
3.874675120456e+08
4.053620963418e+08
4.240831141768e+08
4.436687330979e+08
4.641588833613e+08
4.855953393400e+08
5.080218046913e+08
5.314840014581e+08
5.560297632846e+08
5.817091329374e+08
6.085744643307e+08
6.366805292624e+08
6.660846290809e+08
6.968467115083e+08
7.290294928589e+08
7.626985859024e+08
7.979226336321e+08
8.347734492114e+08
8.733261623829e+08
9.136593726392e+08
9.558553094685e+08
1.000000000000e+09
</indep>
<dep ac.v(in) frequency>
1.000000000000e+01+j0.000000000000e+00
1.000000000000e+01+j0.000000000000e+00
1.000000000000e+01+j0.000000000000e+00
1.000000000000e+01+j0.000000000000e+00
1.000000000000e+01+j0.000000000000e+00
1.000000000000e+01+j0.000000000000e+00
1.000000000000e+01+j0.000000000000e+00
1.000000000000e+01+j0.000000000000e+00
1.000000000000e+01+j0.000000000000e+00
1.000000000000e+01+j0.000000000000e+00
1.000000000000e+01+j0.000000000000e+00
1.000000000000e+01+j0.000000000000e+00
1.000000000000e+01+j0.000000000000e+00
1.000000000000e+01+j0.000000000000e+00
1.000000000000e+01+j0.000000000000e+00
1.000000000000e+01+j0.000000000000e+00
1.000000000000e+01+j0.000000000000e+00
1.000000000000e+01+j0.000000000000e+00
1.000000000000e+01+j0.000000000000e+00
1.000000000000e+01+j0.000000000000e+00
1.000000000000e+01+j0.000000000000e+00
1.000000000000e+01+j0.000000000000e+00
1.000000000000e+01+j0.000000000000e+00
1.000000000000e+01+j0.000000000000e+00
1.000000000000e+01+j0.000000000000e+00
1.000000000000e+01+j0.000000000000e+00
1.000000000000e+01+j0.000000000000e+00
1.000000000000e+01+j0.000000000000e+00
1.000000000000e+01+j0.000000000000e+00
1.000000000000e+01+j0.000000000000e+00
1.000000000000e+01+j0.000000000000e+00
1.000000000000e+01+j0.000000000000e+00
1.000000000000e+01+j0.000000000000e+00
1.000000000000e+01+j0.000000000000e+00
1.000000000000e+01+j0.000000000000e+00
1.000000000000e+01+j0.000000000000e+00
1.000000000000e+01+j0.000000000000e+00
1.000000000000e+01+j0.000000000000e+00
1.000000000000e+01+j0.000000000000e+00
1.000000000000e+01+j0.000000000000e+00
1.000000000000e+01+j0.000000000000e+00
1.000000000000e+01+j0.000000000000e+00
1.000000000000e+01+j0.000000000000e+00
1.000000000000e+01+j0.000000000000e+00
1.000000000000e+01+j0.000000000000e+00
1.000000000000e+01+j0.000000000000e+00
1.000000000000e+01+j0.000000000000e+00
1.000000000000e+01+j0.000000000000e+00
1.000000000000e+01+j0.000000000000e+00
1.000000000000e+01+j0.000000000000e+00
1.000000000000e+01+j0.000000000000e+00
1.000000000000e+01+j0.000000000000e+00
1.000000000000e+01+j0.000000000000e+00
1.000000000000e+01+j0.000000000000e+00
1.000000000000e+01+j0.000000000000e+00
1.000000000000e+01+j0.000000000000e+00
1.000000000000e+01+j0.000000000000e+00
1.000000000000e+01+j0.000000000000e+00
1.000000000000e+01+j0.000000000000e+00
1.000000000000e+01+j0.000000000000e+00
1.000000000000e+01+j0.000000000000e+00
1.000000000000e+01+j0.000000000000e+00
1.000000000000e+01+j0.000000000000e+00
1.000000000000e+01+j0.000000000000e+00
1.000000000000e+01+j0.000000000000e+00
1.000000000000e+01+j0.000000000000e+00
1.000000000000e+01+j0.000000000000e+00
1.000000000000e+01+j0.000000000000e+00
1.000000000000e+01+j0.000000000000e+00
1.000000000000e+01+j0.000000000000e+00
1.000000000000e+01+j0.000000000000e+00
1.000000000000e+01+j0.000000000000e+00
1.000000000000e+01+j0.000000000000e+00
1.000000000000e+01+j0.000000000000e+00
1.000000000000e+01+j0.000000000000e+00
1.000000000000e+01+j0.000000000000e+00
1.000000000000e+01+j0.000000000000e+00
1.000000000000e+01+j0.000000000000e+00
1.000000000000e+01+j0.000000000000e+00
1.000000000000e+01+j0.000000000000e+00
1.000000000000e+01+j0.000000000000e+00
1.000000000000e+01+j0.000000000000e+00
1.000000000000e+01+j0.000000000000e+00
1.000000000000e+01+j0.000000000000e+00
1.000000000000e+01+j0.000000000000e+00
1.000000000000e+01+j0.000000000000e+00
1.000000000000e+01+j0.000000000000e+00
1.000000000000e+01+j0.000000000000e+00
1.000000000000e+01+j0.000000000000e+00
1.000000000000e+01+j0.000000000000e+00
1.000000000000e+01+j0.000000000000e+00
1.000000000000e+01+j0.000000000000e+00
1.000000000000e+01+j0.000000000000e+00
1.000000000000e+01+j0.000000000000e+00
1.000000000000e+01+j0.000000000000e+00
1.000000000000e+01+j0.000000000000e+00
1.000000000000e+01+j0.000000000000e+00
1.000000000000e+01+j0.000000000000e+00
1.000000000000e+01+j0.000000000000e+00
1.000000000000e+01+j0.000000000000e+00
1.000000000000e+01+j0.000000000000e+00
1.000000000000e+01+j0.000000000000e+00
1.000000000000e+01+j0.000000000000e+00
1.000000000000e+01+j0.000000000000e+00
1.000000000000e+01+j0.000000000000e+00
1.000000000000e+01+j0.000000000000e+00
1.000000000000e+01+j0.000000000000e+00
1.000000000000e+01+j0.000000000000e+00
1.000000000000e+01+j0.000000000000e+00
1.000000000000e+01+j0.000000000000e+00
1.000000000000e+01+j0.000000000000e+00
1.000000000000e+01+j0.000000000000e+00
1.000000000000e+01+j0.000000000000e+00
1.000000000000e+01+j0.000000000000e+00
1.000000000000e+01+j0.000000000000e+00
1.000000000000e+01+j0.000000000000e+00
1.000000000000e+01+j0.000000000000e+00
1.000000000000e+01+j0.000000000000e+00
1.000000000000e+01+j0.000000000000e+00
1.000000000000e+01+j0.000000000000e+00
1.000000000000e+01+j0.000000000000e+00
1.000000000000e+01+j0.000000000000e+00
1.000000000000e+01+j0.000000000000e+00
1.000000000000e+01+j0.000000000000e+00
1.000000000000e+01+j0.000000000000e+00
1.000000000000e+01+j0.000000000000e+00
1.000000000000e+01+j0.000000000000e+00
1.000000000000e+01+j0.000000000000e+00
1.000000000000e+01+j0.000000000000e+00
1.000000000000e+01+j0.000000000000e+00
1.000000000000e+01+j0.000000000000e+00
1.000000000000e+01+j0.000000000000e+00
1.000000000000e+01+j0.000000000000e+00
1.000000000000e+01+j0.000000000000e+00
1.000000000000e+01+j0.000000000000e+00
1.000000000000e+01+j0.000000000000e+00
1.000000000000e+01+j0.000000000000e+00
1.000000000000e+01+j0.000000000000e+00
1.000000000000e+01+j0.000000000000e+00
1.000000000000e+01+j0.000000000000e+00
1.000000000000e+01+j0.000000000000e+00
1.000000000000e+01+j0.000000000000e+00
1.000000000000e+01+j0.000000000000e+00
1.000000000000e+01+j0.000000000000e+00
1.000000000000e+01+j0.000000000000e+00
1.000000000000e+01+j0.000000000000e+00
1.000000000000e+01+j0.000000000000e+00
1.000000000000e+01+j0.000000000000e+00
1.000000000000e+01+j0.000000000000e+00
1.000000000000e+01+j0.000000000000e+00
1.000000000000e+01+j0.000000000000e+00
1.000000000000e+01+j0.000000000000e+00
1.000000000000e+01+j0.000000000000e+00
1.000000000000e+01+j0.000000000000e+00
1.000000000000e+01+j0.000000000000e+00
1.000000000000e+01+j0.000000000000e+00
1.000000000000e+01+j0.000000000000e+00
1.000000000000e+01+j0.000000000000e+00
1.000000000000e+01+j0.000000000000e+00
1.000000000000e+01+j0.000000000000e+00
1.000000000000e+01+j0.000000000000e+00
1.000000000000e+01+j0.000000000000e+00
1.000000000000e+01+j0.000000000000e+00
1.000000000000e+01+j0.000000000000e+00
1.000000000000e+01+j0.000000000000e+00
1.000000000000e+01+j0.000000000000e+00
1.000000000000e+01+j0.000000000000e+00
1.000000000000e+01+j0.000000000000e+00
1.000000000000e+01+j0.000000000000e+00
1.000000000000e+01+j0.000000000000e+00
1.000000000000e+01+j0.000000000000e+00
1.000000000000e+01+j0.000000000000e+00
1.000000000000e+01+j0.000000000000e+00
1.000000000000e+01+j0.000000000000e+00
1.000000000000e+01+j0.000000000000e+00
1.000000000000e+01+j0.000000000000e+00
1.000000000000e+01+j0.000000000000e+00
1.000000000000e+01+j0.000000000000e+00
1.000000000000e+01+j0.000000000000e+00
1.000000000000e+01+j0.000000000000e+00
1.000000000000e+01+j0.000000000000e+00
1.000000000000e+01+j0.000000000000e+00
1.000000000000e+01+j0.000000000000e+00
1.000000000000e+01+j0.000000000000e+00
1.000000000000e+01+j0.000000000000e+00
1.000000000000e+01+j0.000000000000e+00
1.000000000000e+01+j0.000000000000e+00
1.000000000000e+01+j0.000000000000e+00
1.000000000000e+01+j0.000000000000e+00
1.000000000000e+01+j0.000000000000e+00
1.000000000000e+01+j0.000000000000e+00
1.000000000000e+01+j0.000000000000e+00
1.000000000000e+01+j0.000000000000e+00
1.000000000000e+01+j0.000000000000e+00
1.000000000000e+01+j0.000000000000e+00
1.000000000000e+01+j0.000000000000e+00
1.000000000000e+01+j0.000000000000e+00
1.000000000000e+01+j0.000000000000e+00
1.000000000000e+01+j0.000000000000e+00
1.000000000000e+01+j0.000000000000e+00
1.000000000000e+01+j0.000000000000e+00
1.000000000000e+01+j0.000000000000e+00
1.000000000000e+01+j0.000000000000e+00
1.000000000000e+01+j0.000000000000e+00
1.000000000000e+01+j0.000000000000e+00
1.000000000000e+01+j0.000000000000e+00
1.000000000000e+01+j0.000000000000e+00
1.000000000000e+01+j0.000000000000e+00
1.000000000000e+01+j0.000000000000e+00
1.000000000000e+01+j0.000000000000e+00
1.000000000000e+01+j0.000000000000e+00
1.000000000000e+01+j0.000000000000e+00
1.000000000000e+01+j0.000000000000e+00
1.000000000000e+01+j0.000000000000e+00
1.000000000000e+01+j0.000000000000e+00
1.000000000000e+01+j0.000000000000e+00
1.000000000000e+01+j0.000000000000e+00
1.000000000000e+01+j0.000000000000e+00
1.000000000000e+01+j0.000000000000e+00
1.000000000000e+01+j0.000000000000e+00
1.000000000000e+01+j0.000000000000e+00
1.000000000000e+01+j0.000000000000e+00
1.000000000000e+01+j0.000000000000e+00
1.000000000000e+01+j0.000000000000e+00
1.000000000000e+01+j0.000000000000e+00
1.000000000000e+01+j0.000000000000e+00
1.000000000000e+01+j0.000000000000e+00
1.000000000000e+01+j0.000000000000e+00
1.000000000000e+01+j0.000000000000e+00
1.000000000000e+01+j0.000000000000e+00
1.000000000000e+01+j0.000000000000e+00
1.000000000000e+01+j0.000000000000e+00
1.000000000000e+01+j0.000000000000e+00
1.000000000000e+01+j0.000000000000e+00
1.000000000000e+01+j0.000000000000e+00
1.000000000000e+01+j0.000000000000e+00
1.000000000000e+01+j0.000000000000e+00
1.000000000000e+01+j0.000000000000e+00
1.000000000000e+01+j0.000000000000e+00
1.000000000000e+01+j0.000000000000e+00
1.000000000000e+01+j0.000000000000e+00
1.000000000000e+01+j0.000000000000e+00
1.000000000000e+01+j0.000000000000e+00
1.000000000000e+01+j0.000000000000e+00
1.000000000000e+01+j0.000000000000e+00
1.000000000000e+01+j0.000000000000e+00
1.000000000000e+01+j0.000000000000e+00
1.000000000000e+01+j0.000000000000e+00
1.000000000000e+01+j0.000000000000e+00
1.000000000000e+01+j0.000000000000e+00
1.000000000000e+01+j0.000000000000e+00
1.000000000000e+01+j0.000000000000e+00
1.000000000000e+01+j0.000000000000e+00
1.000000000000e+01+j0.000000000000e+00
1.000000000000e+01+j0.000000000000e+00
1.000000000000e+01+j0.000000000000e+00
1.000000000000e+01+j0.000000000000e+00
1.000000000000e+01+j0.000000000000e+00
1.000000000000e+01+j0.000000000000e+00
1.000000000000e+01+j0.000000000000e+00
1.000000000000e+01+j0.000000000000e+00
1.000000000000e+01+j0.000000000000e+00
1.000000000000e+01+j0.000000000000e+00
1.000000000000e+01+j0.000000000000e+00
1.000000000000e+01+j0.000000000000e+00
1.000000000000e+01+j0.000000000000e+00
1.000000000000e+01+j0.000000000000e+00
1.000000000000e+01+j0.000000000000e+00
1.000000000000e+01+j0.000000000000e+00
1.000000000000e+01+j0.000000000000e+00
1.000000000000e+01+j0.000000000000e+00
1.000000000000e+01+j0.000000000000e+00
1.000000000000e+01+j0.000000000000e+00
1.000000000000e+01+j0.000000000000e+00
1.000000000000e+01+j0.000000000000e+00
1.000000000000e+01+j0.000000000000e+00
1.000000000000e+01+j0.000000000000e+00
1.000000000000e+01+j0.000000000000e+00
1.000000000000e+01+j0.000000000000e+00
1.000000000000e+01+j0.000000000000e+00
1.000000000000e+01+j0.000000000000e+00
1.000000000000e+01+j0.000000000000e+00
1.000000000000e+01+j0.000000000000e+00
1.000000000000e+01+j0.000000000000e+00
1.000000000000e+01+j0.000000000000e+00
1.000000000000e+01+j0.000000000000e+00
1.000000000000e+01+j0.000000000000e+00
1.000000000000e+01+j0.000000000000e+00
1.000000000000e+01+j0.000000000000e+00
1.000000000000e+01+j0.000000000000e+00
1.000000000000e+01+j0.000000000000e+00
1.000000000000e+01+j0.000000000000e+00
1.000000000000e+01+j0.000000000000e+00
1.000000000000e+01+j0.000000000000e+00
1.000000000000e+01+j0.000000000000e+00
1.000000000000e+01+j0.000000000000e+00
1.000000000000e+01+j0.000000000000e+00
1.000000000000e+01+j0.000000000000e+00
1.000000000000e+01+j0.000000000000e+00
1.000000000000e+01+j0.000000000000e+00
1.000000000000e+01+j0.000000000000e+00
1.000000000000e+01+j0.000000000000e+00
1.000000000000e+01+j0.000000000000e+00
1.000000000000e+01+j0.000000000000e+00
1.000000000000e+01+j0.000000000000e+00
1.000000000000e+01+j0.000000000000e+00
1.000000000000e+01+j0.000000000000e+00
</dep>
<dep ac.v(out) frequency>
2.470452303186e-01-j1.552230961346e+00
2.261976706866e-01-j1.486879726354e+00
2.070720345859e-01-j1.424023004853e+00
1.895321646389e-01-j1.363597889759e+00
1.734516806236e-01-j1.305538709010e+00
1.587134417923e-01-j1.249777764772e+00
1.452090096350e-01-j1.196245977996e+00
1.328381175976e-01-j1.144873447368e+00
1.215081528534e-01-j1.095589931190e+00
1.111336540249e-01-j1.048325260209e+00
1.016358277435e-01-j1.003009688863e+00
9.294208609306e-02-j9.595741917972e-01
8.498560628425e-02-j9.179507119486e-01
7.770491333737e-02-j8.780723659340e-01
7.104348609188e-02-j8.398736119219e-01
6.494938649132e-02-j8.032903846727e-01
5.937491180449e-02-j7.682602019453e-01
5.427626922083e-02-j7.347222460275e-01
4.961327209092e-02-j7.026174237390e-01
4.534905696131e-02-j6.718884078817e-01
4.144982046944e-02-j6.424796627734e-01
3.788457511113e-02-j6.143374561916e-01
3.462492286477e-02-j5.874098597779e-01
3.164484564778e-02-j5.616467397054e-01
2.892051158760e-02-j5.369997391857e-01
2.643009610847e-02-j5.134222541967e-01
2.415361686308e-02-j4.908694036332e-01
2.207278157279e-02-j4.692979949260e-01
2.017084787963e-02-j4.486664860362e-01
1.843249435553e-02-j4.289349446095e-01
1.684370185894e-02-j4.100650049651e-01
1.539164447373e-02-j3.920198235009e-01
1.406458931112e-02-j3.747640330110e-01
1.285180449947e-02-j3.582636963409e-01
1.174347473082e-02-j3.424862597382e-01
1.073062377493e-02-j3.274005062041e-01
9.805043412511e-03-j3.129765091006e-01
8.959228277588e-03-j2.991855862246e-01
8.186316136143e-03-j2.860002545271e-01
7.480033162648e-03-j2.733941856192e-01
6.834643809023e-03-j2.613421621825e-01
6.244904891245e-03-j2.498200353762e-01
5.706023547642e-03-j2.388046833119e-01
5.213618749806e-03-j2.282739706528e-01
4.763686072082e-03-j2.182067093740e-01
4.352565448930e-03-j2.085826207125e-01
3.976911671066e-03-j1.993822983221e-01
3.633667391319e-03-j1.905871726389e-01
3.320038429734e-03-j1.821794764571e-01
3.033471184575e-03-j1.741422117073e-01
2.771631971731e-03-j1.664591174238e-01
2.532388129652e-03-j1.591146388830e-01
2.313790740383e-03-j1.520938978929e-01
